
**** 06/21/25 23:08:02 ***** PSpice 24.1.0 (17 April 2025) **** ID# 0 ********

 ** Profile: "SCHEMATIC1-problem 3"  [ c:\users\lhlee\appdata\roaming\spb_data\cdssetup\workspace\projects\recitation 3\Recitation 3-


 ****     CIRCUIT DESCRIPTION


******************************************************************************




** Creating circuit file "problem 3.cir" 
** WARNING: THIS AUTOMATICALLY GENERATED FILE MAY BE OVERWRITTEN BY SUBSEQUENT SIMULATIONS

*Libraries: 
* Profile Libraries :
* Local Libraries :
* From [PSPICE NETLIST] section of C:\Users\lhlee\AppData\Roaming\SPB_Data\cdssetup\OrCAD_PSpice\24.1.0\PSpice.ini file:
.lib "nom.lib" 

*Analysis directives: 
.TRAN  0 1000ns 0 
.OPTIONS ADVCONV
.PROBE64 V(alias(*)) I(alias(*)) W(alias(*)) D(alias(*)) NOISE(alias(*)) 
.INC "..\SCHEMATIC1.net" 



**** INCLUDING SCHEMATIC1.net ****
* source RECITATION 3
V_V1         N14613 0 5V
E_U1         N14708 0 VALUE {LIMIT(V(N14637,N14651)*1E6,-15V,+15V)}
R_R2         N14613 N14651  2k TC=0,0 
R_R3         N14613 N14637  3k TC=0,0 
R_R4         N14651 N14708  1k TC=0,0 
R_R5         0 N14637  500 TC=0,0 
E_U2         N15202 0 VALUE {LIMIT(V(N15305,N15094)*1E6,-15V,+15V)}
E_U3         N15130 0 VALUE {LIMIT(V(N15301,N15112)*1E6,-15V,+15V)}
E_U4         N15173 0 VALUE {LIMIT(V(N15142,N15156)*1E6,-15V,+15V)}
R_R6         0 N15094  5k TC=0,0 
R_R7         N15112 0  5k TC=0,0 
R_R8         N15130 N15112  2k TC=0,0 
R_R9         N15202 N15094  2k TC=0,0 
R_R10         N15156 N15202  3k TC=0,0 
R_R11         N15142 N15130  3k TC=0,0 
R_R12         N15142 0  2k TC=0,0 
R_R13         N15156 N15173  2k TC=0,0 
V_V2         N15305 0 7.5Vdc
V_V3         N15301 0 5Vdc
E_U5         N16054 0 VALUE {LIMIT(V(0,N16037)*1E6,-15V,+15V)}
R_R14         N16037 N16054  1k TC=0,0 
C_C1         N16033 N16037  51n  TC=0,0 
V_V4         N16033 0  
+SIN 0 170mV 1k 0 0 0

**** RESUMING "problem 3.cir" ****
.END

**** 06/21/25 23:08:02 ***** PSpice 24.1.0 (17 April 2025) **** ID# 0 ********

 ** Profile: "SCHEMATIC1-problem 3"  [ c:\users\lhlee\appdata\roaming\spb_data\cdssetup\workspace\projects\recitation 3\Recitation 3-


 ****     INITIAL TRANSIENT SOLUTION       TEMPERATURE =   27.000 DEG C


******************************************************************************



 NODE   VOLTAGE     NODE   VOLTAGE     NODE   VOLTAGE     NODE   VOLTAGE


(N14613)    5.0000 (N14637)     .7143 (N14651)     .7143 (N14708)   -1.4286     

(N15094)    7.5000 (N15112)    5.0000 (N15130)    7.0000 (N15142)    2.8000     

(N15156)    2.8000 (N15173)   -2.3333 (N15202)   10.5000 (N15301)    5.0000     

(N15305)    7.5000 (N16033)    0.0000 (N16037)    0.0000 (N16054)    0.0000 




    VOLTAGE SOURCE CURRENTS
    NAME         CURRENT

    V_V1        -3.571E-03
    V_V2         0.000E+00
    V_V3         0.000E+00
    V_V4         0.000E+00

    TOTAL POWER DISSIPATION   1.79E-02  WATTS



          JOB CONCLUDED

**** 06/21/25 23:08:02 ***** PSpice 24.1.0 (17 April 2025) **** ID# 0 ********

 ** Profile: "SCHEMATIC1-problem 3"  [ c:\users\lhlee\appdata\roaming\spb_data\cdssetup\workspace\projects\recitation 3\Recitation 3-


 ****     JOB STATISTICS SUMMARY


******************************************************************************



  Total job time (using Solver 1)   =         .02
