
**** 06/14/25 23:15:17 ***** PSpice 24.1.0 (17 April 2025) **** ID# 0 ********

 ** Profile: "SCHEMATIC1-3"  [ c:\users\lhlee\appdata\roaming\spb_data\cdssetup\workspace\projects\hw problem #3\HW problem #3-PSpice


 ****     CIRCUIT DESCRIPTION


******************************************************************************




** Creating circuit file "3.cir" 
** WARNING: THIS AUTOMATICALLY GENERATED FILE MAY BE OVERWRITTEN BY SUBSEQUENT SIMULATIONS

*Libraries: 
* Profile Libraries :
* Local Libraries :
* From [PSPICE NETLIST] section of C:\Users\lhlee\AppData\Roaming\SPB_Data\cdssetup\OrCAD_PSpice\24.1.0\PSpice.ini file:
.lib "nom.lib" 

*Analysis directives: 
.TRAN  0 1000ns 0 
.OPTIONS ADVCONV
.PROBE64 V(alias(*)) I(alias(*)) W(alias(*)) D(alias(*)) NOISE(alias(*)) 
.INC "..\SCHEMATIC1.net" 



**** INCLUDING SCHEMATIC1.net ****
* source HW PROBLEM #3
E_U1         N14394 0 VALUE {LIMIT(V(N14484,N14415)*1E6,-15V,+15V)}
R_R1         N14415 N14394  1k TC=0,0 
R_R2         0 N14415  2k TC=0,0 
V_V1         N14484 0 3v

**** RESUMING 3.cir ****
.END

**** 06/14/25 23:15:17 ***** PSpice 24.1.0 (17 April 2025) **** ID# 0 ********

 ** Profile: "SCHEMATIC1-3"  [ c:\users\lhlee\appdata\roaming\spb_data\cdssetup\workspace\projects\hw problem #3\HW problem #3-PSpice


 ****     INITIAL TRANSIENT SOLUTION       TEMPERATURE =   27.000 DEG C


******************************************************************************



 NODE   VOLTAGE     NODE   VOLTAGE     NODE   VOLTAGE     NODE   VOLTAGE


(N14394)    4.5000 (N14415)    3.0000 (N14484)    3.0000 




    VOLTAGE SOURCE CURRENTS
    NAME         CURRENT

    V_V1         0.000E+00

    TOTAL POWER DISSIPATION   0.00E+00  WATTS



          JOB CONCLUDED

**** 06/14/25 23:15:17 ***** PSpice 24.1.0 (17 April 2025) **** ID# 0 ********

 ** Profile: "SCHEMATIC1-3"  [ c:\users\lhlee\appdata\roaming\spb_data\cdssetup\workspace\projects\hw problem #3\HW problem #3-PSpice


 ****     JOB STATISTICS SUMMARY


******************************************************************************



  Total job time (using Solver 1)   =         .03
