
**** 06/07/25 22:53:34 ***** PSpice 24.1.0 (17 April 2025) **** ID# 0 ********

 ** Profile: "SCHEMATIC1-sim3"  [ C:\USERS\LHLEE\APPDATA\ROAMING\SPB_DATA\CDSSETUP\WORKSPACE\PROJECTS\HW1\HW1-PSpiceFiles\SCHEMATIC1\


 ****     CIRCUIT DESCRIPTION


******************************************************************************




** Creating circuit file "sim3.cir" 
** WARNING: THIS AUTOMATICALLY GENERATED FILE MAY BE OVERWRITTEN BY SUBSEQUENT SIMULATIONS

*Libraries: 
* Profile Libraries :
* Local Libraries :
* From [PSPICE NETLIST] section of C:\Users\lhlee\AppData\Roaming\SPB_Data\cdssetup\OrCAD_PSpice\24.1.0\PSpice.ini file:
.lib "nom.lib" 

*Analysis directives: 
.OPTIONS ADVCONV
.PROBE64 V(alias(*)) I(alias(*)) W(alias(*)) D(alias(*)) NOISE(alias(*)) 
.INC "..\SCHEMATIC1.net" 



**** INCLUDING SCHEMATIC1.net ****
* source HW1
R_R1         N00155 N00136  100 TC=0,0 
C_C1         0 N00136  1n  TC=0,0 
V_V1         N00155 0 5Vdc

**** RESUMING sim3.cir ****
.END

**** 06/07/25 22:53:34 ***** PSpice 24.1.0 (17 April 2025) **** ID# 0 ********

 ** Profile: "SCHEMATIC1-sim3"  [ C:\USERS\LHLEE\APPDATA\ROAMING\SPB_DATA\CDSSETUP\WORKSPACE\PROJECTS\HW1\HW1-PSpiceFiles\SCHEMATIC1\


 ****     SMALL SIGNAL BIAS SOLUTION       TEMPERATURE =   27.000 DEG C


******************************************************************************



 NODE   VOLTAGE     NODE   VOLTAGE     NODE   VOLTAGE     NODE   VOLTAGE


(N00136)    5.0000 (N00155)    5.0000 




    VOLTAGE SOURCE CURRENTS
    NAME         CURRENT

    V_V1         0.000E+00

    TOTAL POWER DISSIPATION   0.00E+00  WATTS



          JOB CONCLUDED

**** 06/07/25 22:53:34 ***** PSpice 24.1.0 (17 April 2025) **** ID# 0 ********

 ** Profile: "SCHEMATIC1-sim3"  [ C:\USERS\LHLEE\APPDATA\ROAMING\SPB_DATA\CDSSETUP\WORKSPACE\PROJECTS\HW1\HW1-PSpiceFiles\SCHEMATIC1\


 ****     JOB STATISTICS SUMMARY


******************************************************************************



  Total job time (using Solver 1)   =         .02
