
**** 06/14/25 23:10:52 ***** PSpice 24.1.0 (17 April 2025) **** ID# 0 ********

 ** Profile: "SCHEMATIC1-#4"  [ c:\users\lhlee\appdata\roaming\spb_data\cdssetup\workspace\projects\question 4\question 4-PSpiceFiles


 ****     CIRCUIT DESCRIPTION


******************************************************************************




** Creating circuit file "#4.cir" 
** WARNING: THIS AUTOMATICALLY GENERATED FILE MAY BE OVERWRITTEN BY SUBSEQUENT SIMULATIONS

*Libraries: 
* Profile Libraries :
* Local Libraries :
* From [PSPICE NETLIST] section of C:\Users\lhlee\AppData\Roaming\SPB_Data\cdssetup\OrCAD_PSpice\24.1.0\PSpice.ini file:
.lib "nom.lib" 

*Analysis directives: 
.TRAN  0 1000ns 0 
.OPTIONS ADVCONV
.PROBE64 V(alias(*)) I(alias(*)) W(alias(*)) D(alias(*)) NOISE(alias(*)) 
.INC "..\SCHEMATIC1.net" 



**** INCLUDING SCHEMATIC1.net ****
* source QUESTION 4
E_U1         N14651 0 VALUE {LIMIT(V(N14606,0)*1E6,-15V,+15V)}
E_U2         N14779 0 VALUE {LIMIT(V(N14733,0)*1E6,-15V,+15V)}
R_R1         N14651 N14733  1k TC=0,0 
R_R2         N14606 N14651  2k TC=0,0 
R_R3         N14599 N14606  2k TC=0,0 
R_R4         N14628 N14606  1k TC=0,0 
R_R5         N14729 N14733  500 TC=0,0 
R_R6         N14725 N14733  2k TC=0,0 
R_R7         N14733 N14779  2k TC=0,0 
V_V1         N14599 0 2v
V_V2         N14628 0 2v
V_V3         N14729 0 2v
V_V4         N14725 0 2v

**** RESUMING #4.cir ****
.END

**** 06/14/25 23:10:52 ***** PSpice 24.1.0 (17 April 2025) **** ID# 0 ********

 ** Profile: "SCHEMATIC1-#4"  [ c:\users\lhlee\appdata\roaming\spb_data\cdssetup\workspace\projects\question 4\question 4-PSpiceFiles


 ****     INITIAL TRANSIENT SOLUTION       TEMPERATURE =   27.000 DEG C


******************************************************************************



 NODE   VOLTAGE     NODE   VOLTAGE     NODE   VOLTAGE     NODE   VOLTAGE


(N14599)    2.0000 (N14606)-6.000E-06 (N14628)    2.0000 (N14651)   -6.0000     

(N14725)    2.0000 (N14729)    2.0000 (N14733) 2.000E-06 (N14779)    2.0001 




    VOLTAGE SOURCE CURRENTS
    NAME         CURRENT

    V_V1        -1.000E-03
    V_V2        -2.000E-03
    V_V3        -4.000E-03
    V_V4        -1.000E-03

    TOTAL POWER DISSIPATION   1.60E-02  WATTS



          JOB CONCLUDED

**** 06/14/25 23:10:52 ***** PSpice 24.1.0 (17 April 2025) **** ID# 0 ********

 ** Profile: "SCHEMATIC1-#4"  [ c:\users\lhlee\appdata\roaming\spb_data\cdssetup\workspace\projects\question 4\question 4-PSpiceFiles


 ****     JOB STATISTICS SUMMARY


******************************************************************************



  Total job time (using Solver 1)   =         .03
